time;I(V1);V(Net-_R1-Pad1_);
0;0;0;
1e-07;-3.14159e-06;0.00314159;
2e-07;-6.28318e-06;0.00628318;
4e-07;-1.25664e-05;0.0125664;
8e-07;-2.51326e-05;0.0251326;
1.6e-06;-5.02646e-05;0.0502646;
3.2e-06;-0.000100524;0.100524;
6.4e-06;-0.000201008;0.201008;
1.28e-05;-0.000401691;0.401691;
2.56e-05;-0.000800784;0.800784;
4.56e-05;-0.00141305;1.41305;
6.56e-05;-0.00200302;2.00302;
8.56e-05;-0.00256141;2.56141;
0.0001056;-0.00307941;3.07941;
0.0001256;-0.00354884;3.54884;
0.0001456;-0.0039623;3.9623;
0.0001656;-0.00431327;4.31327;
0.0001856;-0.00459623;4.59623;
0.0002056;-0.00480669;4.80669;
0.0002256;-0.00494136;4.94136;
0.0002456;-0.00499809;4.99809;
0.0002656;-0.004976;4.976;
0.0002856;-0.00487544;4.87544;
0.0003056;-0.00469799;4.69799;
0.0003256;-0.00444644;4.44644;
0.0003456;-0.00412478;4.12478;
0.0003656;-0.00373806;3.73806;
0.0003856;-0.0032924;3.2924;
0.0004056;-0.00279481;2.79481;
0.0004256;-0.00225314;2.25314;
0.0004456;-0.00167594;1.67594;
0.0004656;-0.00107231;1.07231;
0.0004856;-0.000451772;0.451772;
0.0005056;0.000175893;-0.175893;
0.0005256;0.000800784;-0.800784;
0.0005456;0.00141305;-1.41305;
0.0005656;0.00200302;-2.00302;
0.0005856;0.00256141;-2.56141;
0.0006056;0.00307941;-3.07941;
0.0006256;0.00354884;-3.54884;
0.0006456;0.0039623;-3.9623;
0.0006656;0.00431327;-4.31327;
0.0006856;0.00459623;-4.59623;
0.0007056;0.00480669;-4.80669;
0.0007256;0.00494136;-4.94136;
0.0007456;0.00499809;-4.99809;
0.0007656;0.004976;-4.976;
0.0007856;0.00487544;-4.87544;
0.0008056;0.00469799;-4.69799;
0.0008256;0.00444644;-4.44644;
0.0008456;0.00412478;-4.12478;
0.0008656;0.00373806;-3.73806;
0.0008856;0.0032924;-3.2924;
0.0009056;0.00279481;-2.79481;
0.0009256;0.00225314;-2.25314;
0.0009456;0.00167594;-1.67594;
0.0009656;0.00107231;-1.07231;
0.0009856;0.000451772;-0.451772;
0.001;1.22465e-18;-1.22465e-15;
